
**** 11/30/22 02:10:19 ******* PSpice Lite (March 2016) ******* ID# 10813 ****

 ** Profile: "SCHEMATIC1-jljljl"  [ E:\Habib\Year2 projects\BE Amplifier\BE_FInal_Project-PSpiceFiles\SCHEMATIC1\jljljl.sim ] 


 ****     CIRCUIT DESCRIPTION


******************************************************************************




** Creating circuit file "jljljl.cir" 
** WARNING: THIS AUTOMATICALLY GENERATED FILE MAY BE OVERWRITTEN BY SUBSEQUENT SIMULATIONS

*Libraries: 
* Profile Libraries :
* Local Libraries :
* From [PSPICE NETLIST] section of C:\Users\ABC\AppData\Roaming\SPB_Data\cdssetup\OrCAD_PSpice\17.2.0\PSpice.ini file:
.lib "nomd.lib" 

*Analysis directives: 
.TRAN  0 1ms 0 
.OPTIONS ADVCONV
.PROBE64 V(alias(*)) I(alias(*)) W(alias(*)) D(alias(*)) NOISE(alias(*)) 
.INC "..\SCHEMATIC1.net" 



**** INCLUDING SCHEMATIC1.net ****
* source BE_FINAL_PROJECT
X_Q1         N00253 N00239 N00282 awb2n3904 PARAMS:                            
+                 
R_R1         N00239 N00253  10k TC=0,0 
R_R2         0 N00282  2.2k TC=0,0 
V_V1         N00253 0 20
C_C1         N00578 N00239  10u  TC=0,0 
V_V2         N00578 0  
+SIN 0 10m 1k 0 0 0

**** RESUMING jljljl.cir ****
.END

**** 11/30/22 02:10:19 ******* PSpice Lite (March 2016) ******* ID# 10813 ****

 ** Profile: "SCHEMATIC1-jljljl"  [ E:\Habib\Year2 projects\BE Amplifier\BE_FInal_Project-PSpiceFiles\SCHEMATIC1\jljljl.sim ] 


 ****     BJT MODEL PARAMETERS


******************************************************************************




               X_Q1.model4     
               NPN             
       LEVEL    1            
          IS  172.800000E-18 
          EG    1.206        
          BF  254.395        
          NF     .85         
         VAF   10            
         IKF     .016374     
         ISE    9.974460E-15 
          NE    1.20863      
          BR     .1          
          NR     .891964     
         VAR    7.74046      
         IKR     .163741     
         ISC    9.974460E-15 
          NC    2.84343      
         ISS    0            
          RB   28.3394       
         RBM     .01         
         IRB     .01         
          RE    1.339110E-03 
          RC    2.08353      
         CJE    4.566140E-12 
         VJE     .4          
         MJE     .245712     
         CJC    3.724850E-12 
         VJC     .4          
         MJC     .236002     
        XCJC     .8          
         CJS    0            
         VJS     .75         
         MJS     .5          
          FC     .519152     
          TF  481.412000E-12 
         XTF     .9628       
         VTF    9.52193      
         ITF     .011333     
          TR    1.303990E-06 
         XTB    1.20888      
         XTI    1.34879      
          KF    0            
          AF    1            
          CN    2.42         
           D     .87         


**** 11/30/22 02:10:19 ******* PSpice Lite (March 2016) ******* ID# 10813 ****

 ** Profile: "SCHEMATIC1-jljljl"  [ E:\Habib\Year2 projects\BE Amplifier\BE_FInal_Project-PSpiceFiles\SCHEMATIC1\jljljl.sim ] 


 ****     INITIAL TRANSIENT SOLUTION       TEMPERATURE =   27.000 DEG C


******************************************************************************



 NODE   VOLTAGE     NODE   VOLTAGE     NODE   VOLTAGE     NODE   VOLTAGE


(N00239)   18.9770 (N00253)   20.0000 (N00282)   18.2730 (N00578)    0.0000 




    VOLTAGE SOURCE CURRENTS
    NAME         CURRENT

    V_V1        -8.306E-03
    V_V2         0.000E+00

    TOTAL POWER DISSIPATION   1.66E-01  WATTS


**** Interrupt ****

          JOB ABORTED

**** 11/30/22 02:10:19 ******* PSpice Lite (March 2016) ******* ID# 10813 ****

 ** Profile: "SCHEMATIC1-jljljl"  [ E:\Habib\Year2 projects\BE Amplifier\BE_FInal_Project-PSpiceFiles\SCHEMATIC1\jljljl.sim ] 


 ****     JOB STATISTICS SUMMARY


******************************************************************************



  Total job time (using Solver 1)   =       30.22
